T0E44 000:006.142   SEGGER J-Link V8.10l Log File
T0E44 000:006.425   DLL Compiled: Dec 11 2024 15:58:21
T0E44 000:006.435   Logging started @ 2024-12-16 03:49
T0E44 000:006.444   Process: D:\Keil\UV4\UV4.exe
T0E44 000:006.459 - 6.452ms 
T0E44 000:006.476 JLINK_SetWarnOutHandler(...)
T0E44 000:006.504 - 0.030ms 
T0E44 000:006.518 JLINK_OpenEx(...)
T0E44 000:017.570   Firmware: J-Link V9 compiled May  7 2021 16:26:12
T0E44 000:019.577   Firmware: J-Link V9 compiled May  7 2021 16:26:12
T0E44 000:019.721   Decompressing FW timestamp took 98 us
T0E44 000:027.917   Hardware: V9.40
T0E44 000:027.938   S/N: 69407042
T0E44 000:027.944   OEM: SEGGER
T0E44 000:027.951   Feature(s): RDI, GDB, FlashDL, FlashBP, JFlash
T0E44 000:029.736   Bootloader: (FW returned invalid version)
T0E44 000:037.065   TELNET listener socket opened on port 19021
T0E44 000:037.282   WEBSRV WEBSRV_Init(): Starting webserver thread(s)
T0E44 000:037.389   WEBSRV Failed to put socket into listener state (port 19080)
T0E44 000:037.514   WEBSRV Webserver running on local port 19081
T0E44 000:037.666   Looking for J-Link GUI Server exe at: D:\Keil\ARM\Segger\JLinkGUIServer.exe
T0E44 000:037.800   Looking for J-Link GUI Server exe at: C:\Program Files\SEGGER\JLink_V810l\JLinkGUIServer.exe
T0E44 000:037.839   Forking J-Link GUI Server: C:\Program Files\SEGGER\JLink_V810l\JLinkGUIServer.exe
T0E44 000:055.248   J-Link GUI Server info: "J-Link GUI server V8.10l "
T0E44 000:056.127 - 49.602ms returns "O.K."
T0E44 000:056.196 JLINK_GetEmuCaps()
T0E44 000:056.206 - 0.007ms returns 0xB9FF7BBF
T0E44 000:056.215 JLINK_TIF_GetAvailable(...)
T0E44 000:057.604 - 1.388ms 
T0E44 000:057.729 JLINK_SetErrorOutHandler(...)
T0E44 000:057.748 - 0.019ms 
T0E44 000:057.786 JLINK_ExecCommand("ProjectFile = "d:\Files\Code\Keil\NolanEmbedded\MDK-ARM\JLinkSettings.ini"", ...). 
T0E44 000:069.528   Ref file found at: D:\Keil\ARM\Segger\JLinkDevices.ref
T0E44 000:069.622   REF file references invalid XML file: C:\Program Files\SEGGER\JLink_V810l\JLinkDevices.xml
T0E44 000:070.562 - 12.776ms returns 0x00
T0E44 000:070.929 JLINK_ExecCommand("Device = STM32F407VETx", ...). 
T0E44 000:071.957   Device "STM32F407VE" selected.
T0E44 000:072.513 - 1.575ms returns 0x00
T0E44 000:072.535 JLINK_ExecCommand("DisableConnectionTimeout", ...). 
T0E44 000:072.557   ERROR: Unknown command
T0E44 000:072.571 - 0.023ms returns 0x01
T0E44 000:072.582 JLINK_GetHardwareVersion()
T0E44 000:072.591 - 0.009ms returns 94000
T0E44 000:072.601 JLINK_GetDLLVersion()
T0E44 000:072.610 - 0.008ms returns 81012
T0E44 000:072.620 JLINK_GetOEMString(...)
T0E44 000:072.632 JLINK_GetFirmwareString(...)
T0E44 000:072.641 - 0.009ms 
T0E44 000:073.835 JLINK_GetDLLVersion()
T0E44 000:073.842 - 0.006ms returns 81012
T0E44 000:073.847 JLINK_GetCompileDateTime()
T0E44 000:073.852 - 0.004ms 
T0E44 000:074.021 JLINK_GetFirmwareString(...)
T0E44 000:074.026 - 0.005ms 
T0E44 000:074.186 JLINK_GetHardwareVersion()
T0E44 000:074.191 - 0.005ms returns 94000
T0E44 000:074.368 JLINK_GetSN()
T0E44 000:074.373 - 0.005ms returns 69407042
T0E44 000:074.528 JLINK_GetOEMString(...)
T0E44 000:074.839 JLINK_TIF_Select(JLINKARM_TIF_SWD)
T0E44 000:078.942 - 4.101ms returns 0x00
T0E44 000:079.009 JLINK_HasError()
T0E44 000:079.029 JLINK_SetSpeed(5000)
T0E44 000:080.567 - 1.539ms 
T0E44 000:080.645 JLINK_GetId()
T0E44 000:090.392   InitTarget() start
T0E44 000:090.414    J-Link Script File: Executing InitTarget()
T0E44 000:091.881   SWD selected. Executing JTAG -> SWD switching sequence.
T0E44 000:095.781   DAP initialized successfully.
T0E44 000:107.460   InitTarget() end - Took 16.7ms
T0E44 000:109.119   Found SW-DP with ID 0x2BA01477
T0E44 000:113.178   DPIDR: 0x2BA01477
T0E44 000:113.417   CoreSight SoC-400 or earlier
T0E44 000:113.595   Scanning AP map to find all available APs
T0E44 000:115.109   AP[1]: Stopped AP scan as end of AP map has been reached
T0E44 000:115.440   AP[0]: AHB-AP (IDR: 0x24770011, ADDR: 0x00000000)
T0E44 000:115.601   Iterating through AP map to find AHB-AP to use
T0E44 000:121.276   AP[0]: Core found
T0E44 000:121.464   AP[0]: AHB-AP ROM base: 0xE00FF000
T0E44 000:123.075   CPUID register: 0x410FC241. Implementer code: 0x41 (ARM)
T0E44 000:123.626   Found Cortex-M4 r0p1, Little endian.
T0E44 000:124.587   -- Max. mem block: 0x0000D518
T0E44 000:125.918   CPU_ReadMem(4 bytes @ 0xE000EDF0)
T0E44 000:126.525   CPU_ReadMem(4 bytes @ 0xE0002000)
T0E44 000:127.417   FPUnit: 6 code (BP) slots and 2 literal slots
T0E44 000:127.427   CPU_ReadMem(4 bytes @ 0xE000EDFC)
T0E44 000:128.051   CPU_ReadMem(4 bytes @ 0xE0001000)
T0E44 000:128.663   CPU_WriteMem(4 bytes @ 0xE0001000)
T0E44 000:129.278   CPU_ReadMem(4 bytes @ 0xE000ED88)
T0E44 000:129.930   CPU_WriteMem(4 bytes @ 0xE000ED88)
T0E44 000:130.539   CPU_ReadMem(4 bytes @ 0xE000ED88)
T0E44 000:131.227   CPU_WriteMem(4 bytes @ 0xE000ED88)
T0E44 000:132.716   CoreSight components:
T0E44 000:133.188   ROMTbl[0] @ E00FF000
T0E44 000:133.207   CPU_ReadMem(64 bytes @ 0xE00FF000)
T0E44 000:134.235   CPU_ReadMem(32 bytes @ 0xE000EFE0)
T0E44 000:135.710   [0][0]: E000E000 CID B105E00D PID 000BB00C SCS-M7
T0E44 000:135.728   CPU_ReadMem(32 bytes @ 0xE0001FE0)
T0E44 000:136.759   [0][1]: E0001000 CID B105E00D PID 003BB002 DWT
T0E44 000:136.771   CPU_ReadMem(32 bytes @ 0xE0002FE0)
T0E44 000:137.811   [0][2]: E0002000 CID B105E00D PID 002BB003 FPB
T0E44 000:137.822   CPU_ReadMem(32 bytes @ 0xE0000FE0)
T0E44 000:138.743   [0][3]: E0000000 CID B105E00D PID 003BB001 ITM
T0E44 000:138.753   CPU_ReadMem(32 bytes @ 0xE0040FE0)
T0E44 000:139.747   [0][4]: E0040000 CID B105900D PID 000BB9A1 TPIU
T0E44 000:139.758   CPU_ReadMem(32 bytes @ 0xE0041FE0)
T0E44 000:140.916   [0][5]: E0041000 CID B105900D PID 000BB925 ETM
T0E44 000:141.411 - 60.765ms returns 0x2BA01477
T0E44 000:141.475 JLINK_GetDLLVersion()
T0E44 000:141.483 - 0.008ms returns 81012
T0E44 000:141.489 JLINK_CORE_GetFound()
T0E44 000:141.494 - 0.004ms returns 0xE0000FF
T0E44 000:141.500 JLINK_GetDebugInfo(0x100 = JLINKARM_ROM_TABLE_ADDR_INDEX)
T0E44 000:141.509   Value=0xE00FF000
T0E44 000:141.515 - 0.015ms returns 0
T0E44 000:141.758 JLINK_GetDebugInfo(0x100 = JLINKARM_ROM_TABLE_ADDR_INDEX)
T0E44 000:141.766   Value=0xE00FF000
T0E44 000:141.773 - 0.015ms returns 0
T0E44 000:141.779 JLINK_GetDebugInfo(0x101 = JLINKARM_DEBUG_INFO_ETM_ADDR_INDEX)
T0E44 000:141.784   Value=0xE0041000
T0E44 000:141.790 - 0.011ms returns 0
T0E44 000:141.796 JLINK_ReadMemEx(0xE0041FD0, 0x20 Bytes, Flags = 0x02000004)
T0E44 000:141.819   CPU_ReadMem(32 bytes @ 0xE0041FD0)
T0E44 000:142.942   Data:  04 00 00 00 00 00 00 00 00 00 00 00 00 00 00 00 ...
T0E44 000:142.956 - 1.159ms returns 32 (0x20)
T0E44 000:142.998 JLINK_GetDebugInfo(0x102 = JLINKARM_DEBUG_INFO_MTB_ADDR_INDEX)
T0E44 000:143.005   Value=0x00000000
T0E44 000:143.011 - 0.013ms returns 0
T0E44 000:143.017 JLINK_GetDebugInfo(0x103 = JLINKARM_DEBUG_INFO_TPIU_ADDR_INDEX)
T0E44 000:143.022   Value=0xE0040000
T0E44 000:143.028 - 0.011ms returns 0
T0E44 000:143.034 JLINK_GetDebugInfo(0x104 = JLINKARM_DEBUG_INFO_ITM_ADDR_INDEX)
T0E44 000:143.038   Value=0xE0000000
T0E44 000:143.044 - 0.010ms returns 0
T0E44 000:143.050 JLINK_GetDebugInfo(0x105 = JLINKARM_DEBUG_INFO_DWT_ADDR_INDEX)
T0E44 000:143.054   Value=0xE0001000
T0E44 000:143.061 - 0.011ms returns 0
T0E44 000:143.066 JLINK_GetDebugInfo(0x106 = JLINKARM_DEBUG_INFO_FPB_ADDR_INDEX)
T0E44 000:143.070   Value=0xE0002000
T0E44 000:143.077 - 0.010ms returns 0
T0E44 000:143.082 JLINK_GetDebugInfo(0x107 = JLINKARM_DEBUG_INFO_NVIC_ADDR_INDEX)
T0E44 000:143.086   Value=0xE000E000
T0E44 000:143.093 - 0.010ms returns 0
T0E44 000:143.098 JLINK_GetDebugInfo(0x10C = JLINKARM_DEBUG_INFO_DBG_ADDR_INDEX)
T0E44 000:143.102   Value=0xE000EDF0
T0E44 000:143.109 - 0.010ms returns 0
T0E44 000:143.114 JLINK_GetDebugInfo(0x01 = Unknown)
T0E44 000:143.119   Value=0x00000001
T0E44 000:143.125 - 0.010ms returns 0
T0E44 000:143.131 JLINK_ReadMemU32(0xE000ED00, 0x1 Items)
T0E44 000:143.139   CPU_ReadMem(4 bytes @ 0xE000ED00)
T0E44 000:144.172   Data:  41 C2 0F 41
T0E44 000:144.184   Debug reg: CPUID
T0E44 000:144.198 - 1.067ms returns 1 (0x1)
T0E44 000:144.233 JLINK_GetDebugInfo(0x10F = JLINKARM_DEBUG_INFO_HAS_CORTEX_M_SECURITY_EXT_INDEX)
T0E44 000:144.239   Value=0x00000000
T0E44 000:144.245 - 0.013ms returns 0
T0E44 000:144.251 JLINK_HasError()
T0E44 000:144.258 JLINK_SetResetType(JLINKARM_CM3_RESET_TYPE_NORMAL)
T0E44 000:144.263 - 0.005ms returns JLINKARM_CM3_RESET_TYPE_NORMAL
T0E44 000:144.268 JLINK_Reset()
T0E44 000:145.856   JLINK_GetResetTypeDesc
T0E44 000:145.878   - 0.022ms 
T0E44 000:146.576   Reset type: NORMAL (https://wiki.segger.com/J-Link_Reset_Strategies)
T0E44 000:146.593   CPU is running
T0E44 000:146.606   CPU_WriteMem(4 bytes @ 0xE000EDF0)
T0E44 000:147.300   CPU is running
T0E44 000:147.322   CPU_WriteMem(4 bytes @ 0xE000EDFC)
T0E44 000:148.244   Reset: Halt core after reset via DEMCR.VC_CORERESET.
T0E44 000:149.531   Reset: Reset device via AIRCR.SYSRESETREQ.
T0E44 000:149.544   CPU is running
T0E44 000:149.555   CPU_WriteMem(4 bytes @ 0xE000ED0C)
T0E44 000:203.672   CPU_ReadMem(4 bytes @ 0xE000EDF0)
T0E44 000:204.268   CPU_ReadMem(4 bytes @ 0xE000EDF0)
T0E44 000:208.192   CPU_WriteMem(4 bytes @ 0xE000EDFC)
T0E44 000:214.537   CPU_ReadMem(4 bytes @ 0xE000EDF0)
T0E44 000:218.390   CPU_WriteMem(4 bytes @ 0xE0002000)
T0E44 000:219.065   CPU_ReadMem(4 bytes @ 0xE000EDFC)
T0E44 000:219.663   CPU_ReadMem(4 bytes @ 0xE0001000)
T0E44 000:220.421 - 76.152ms 
T0E44 000:220.495 JLINK_Halt()
T0E44 000:220.502 - 0.007ms returns 0x00
T0E44 000:220.509 JLINK_ReadMemU32(0xE000EDF0, 0x1 Items)
T0E44 000:220.522   CPU_ReadMem(4 bytes @ 0xE000EDF0)
T0E44 000:243.709   Data:  03 00 03 00
T0E44 000:243.744   Debug reg: DHCSR
T0E44 000:243.758 - 23.248ms returns 1 (0x1)
T0E44 000:243.844 JLINK_WriteU32(0xE000EDF0, 0xA05F0003)
T0E44 000:243.856   Debug reg: DHCSR
T0E44 000:244.212   CPU_WriteMem(4 bytes @ 0xE000EDF0)
T0E44 000:244.959 - 1.114ms returns 0 (0x00000000)
T0E44 000:245.032 JLINK_WriteU32(0xE000EDFC, 0x01000000)
T0E44 000:245.040   Debug reg: DEMCR
T0E44 000:245.050   CPU_WriteMem(4 bytes @ 0xE000EDFC)
T0E44 000:245.693 - 0.660ms returns 0 (0x00000000)
T0E44 000:246.673 JLINK_GetHWStatus(...)
T0E44 000:247.106 - 0.432ms returns 0
T0E44 000:248.146 JLINK_GetNumBPUnits(Type = 0xFFFFFF00)
T0E44 000:248.158 - 0.012ms returns 0x06
T0E44 000:248.169 JLINK_GetNumBPUnits(Type = 0xF0)
T0E44 000:248.179 - 0.009ms returns 0x2000
T0E44 000:248.189 JLINK_GetNumWPUnits()
T0E44 000:248.198 - 0.008ms returns 4
T0E44 000:248.923 JLINK_GetSpeed()
T0E44 000:248.928 - 0.005ms returns 4000
T0E44 000:249.322 JLINK_ReadMemU32(0xE000E004, 0x1 Items)
T0E44 000:249.334   CPU_ReadMem(4 bytes @ 0xE000E004)
T0E44 000:250.037   Data:  02 00 00 00
T0E44 000:250.050 - 0.727ms returns 1 (0x1)
T0E44 000:250.095 JLINK_ReadMemU32(0xE000E004, 0x1 Items)
T0E44 000:250.105   CPU_ReadMem(4 bytes @ 0xE000E004)
T0E44 000:250.767   Data:  02 00 00 00
T0E44 000:250.791 - 0.695ms returns 1 (0x1)
T0E44 000:250.856 JLINK_WriteMemEx(0xE0001000, 0x0000001C Bytes, Flags = 0x02000004)
T0E44 000:250.868   Data:  01 00 00 00 00 00 00 00 00 00 00 00 00 00 00 00 ...
T0E44 000:250.891   CPU_WriteMem(28 bytes @ 0xE0001000)
T0E44 000:251.753 - 0.897ms returns 0x1C
T0E44 000:251.832 JLINK_Halt()
T0E44 000:251.844 - 0.011ms returns 0x00
T0E44 000:251.855 JLINK_IsHalted()
T0E44 000:251.866 - 0.010ms returns TRUE
T0E44 000:253.134 JLINK_WriteMem(0x20000000, 0x184 Bytes, ...)
T0E44 000:253.142   Data:  00 BE 0A E0 0D 78 2D 06 68 40 08 24 40 00 00 D3 ...
T0E44 000:253.368   CPU_WriteMem(388 bytes @ 0x20000000)
T0E44 000:255.991 - 2.856ms returns 0x184
T0E44 000:256.120 JLINK_HasError()
T0E44 000:256.137 JLINK_WriteReg(R0, 0x08000000)
T0E44 000:256.151 - 0.014ms returns 0
T0E44 000:256.163 JLINK_WriteReg(R1, 0x007A1200)
T0E44 000:256.173 - 0.009ms returns 0
T0E44 000:256.183 JLINK_WriteReg(R2, 0x00000001)
T0E44 000:256.192 - 0.009ms returns 0
T0E44 000:256.203 JLINK_WriteReg(R3, 0x00000000)
T0E44 000:256.213 - 0.010ms returns 0
T0E44 000:256.224 JLINK_WriteReg(R4, 0x00000000)
T0E44 000:256.239 - 0.015ms returns 0
T0E44 000:256.252 JLINK_WriteReg(R5, 0x00000000)
T0E44 000:256.261 - 0.008ms returns 0
T0E44 000:256.272 JLINK_WriteReg(R6, 0x00000000)
T0E44 000:256.281 - 0.009ms returns 0
T0E44 000:256.292 JLINK_WriteReg(R7, 0x00000000)
T0E44 000:256.301 - 0.009ms returns 0
T0E44 000:256.318 JLINK_WriteReg(R8, 0x00000000)
T0E44 000:256.328 - 0.017ms returns 0
T0E44 000:256.339 JLINK_WriteReg(R9, 0x20000180)
T0E44 000:256.348 - 0.009ms returns 0
T0E44 000:256.358 JLINK_WriteReg(R10, 0x00000000)
T0E44 000:256.367 - 0.009ms returns 0
T0E44 000:256.378 JLINK_WriteReg(R11, 0x00000000)
T0E44 000:256.387 - 0.009ms returns 0
T0E44 000:256.397 JLINK_WriteReg(R12, 0x00000000)
T0E44 000:256.406 - 0.008ms returns 0
T0E44 000:256.417 JLINK_WriteReg(R13 (SP), 0x20001000)
T0E44 000:256.427 - 0.010ms returns 0
T0E44 000:256.438 JLINK_WriteReg(R14, 0x20000001)
T0E44 000:256.447 - 0.009ms returns 0
T0E44 000:256.461 JLINK_WriteReg(R15 (PC), 0x20000054)
T0E44 000:256.470 - 0.012ms returns 0
T0E44 000:256.481 JLINK_WriteReg(XPSR, 0x01000000)
T0E44 000:256.490 - 0.009ms returns 0
T0E44 000:256.501 JLINK_WriteReg(MSP, 0x20001000)
T0E44 000:256.510 - 0.009ms returns 0
T0E44 000:256.520 JLINK_WriteReg(PSP, 0x20001000)
T0E44 000:256.541 - 0.020ms returns 0
T0E44 000:256.552 JLINK_WriteReg(CFBP, 0x00000000)
T0E44 000:256.561 - 0.009ms returns 0
T0E44 000:256.573 JLINK_SetBPEx(Addr = 0x20000000, Type = 0xFFFFFFF2)
T0E44 000:256.590   CPU_ReadMem(2 bytes @ 0x20000000)
T0E44 000:257.294 - 0.721ms returns 0x00000001
T0E44 000:257.344 JLINK_Go()
T0E44 000:257.353   CPU_WriteMem(2 bytes @ 0x20000000)
T0E44 000:257.932   CPU_ReadMem(4 bytes @ 0xE0001000)
T0E44 000:258.503   CPU_WriteMem(4 bytes @ 0xE0002008)
T0E44 000:258.519   CPU_WriteMem(4 bytes @ 0xE000200C)
T0E44 000:258.526   CPU_WriteMem(4 bytes @ 0xE0002010)
T0E44 000:258.533   CPU_WriteMem(4 bytes @ 0xE0002014)
T0E44 000:258.539   CPU_WriteMem(4 bytes @ 0xE0002018)
T0E44 000:258.546   CPU_WriteMem(4 bytes @ 0xE000201C)
T0E44 000:260.138   CPU_WriteMem(4 bytes @ 0xE0001004)
T0E44 000:264.455   Memory map 'after startup completion point' is active
T0E44 000:264.475 - 7.130ms 
T0E44 000:264.540 JLINK_IsHalted()
T0E44 000:267.844   CPU_ReadMem(2 bytes @ 0x20000000)
T0E44 000:268.548 - 4.007ms returns TRUE
T0E44 000:268.630 JLINK_ReadReg(R15 (PC))
T0E44 000:268.646 - 0.016ms returns 0x20000000
T0E44 000:268.658 JLINK_ClrBPEx(BPHandle = 0x00000001)
T0E44 000:268.668 - 0.010ms returns 0x00
T0E44 000:268.679 JLINK_ReadReg(R0)
T0E44 000:268.688 - 0.009ms returns 0x00000000
T0E44 000:268.905 JLINK_HasError()
T0E44 000:268.918 JLINK_WriteReg(R0, 0x08000000)
T0E44 000:268.925 - 0.007ms returns 0
T0E44 000:268.931 JLINK_WriteReg(R1, 0x00004000)
T0E44 000:268.935 - 0.004ms returns 0
T0E44 000:268.941 JLINK_WriteReg(R2, 0x000000FF)
T0E44 000:268.945 - 0.004ms returns 0
T0E44 000:268.950 JLINK_WriteReg(R3, 0x00000000)
T0E44 000:268.955 - 0.004ms returns 0
T0E44 000:268.960 JLINK_WriteReg(R4, 0x00000000)
T0E44 000:268.965 - 0.004ms returns 0
T0E44 000:268.970 JLINK_WriteReg(R5, 0x00000000)
T0E44 000:268.974 - 0.004ms returns 0
T0E44 000:268.980 JLINK_WriteReg(R6, 0x00000000)
T0E44 000:268.984 - 0.004ms returns 0
T0E44 000:268.989 JLINK_WriteReg(R7, 0x00000000)
T0E44 000:268.994 - 0.004ms returns 0
T0E44 000:268.999 JLINK_WriteReg(R8, 0x00000000)
T0E44 000:269.004 - 0.004ms returns 0
T0E44 000:269.009 JLINK_WriteReg(R9, 0x20000180)
T0E44 000:269.013 - 0.004ms returns 0
T0E44 000:269.019 JLINK_WriteReg(R10, 0x00000000)
T0E44 000:269.023 - 0.004ms returns 0
T0E44 000:269.028 JLINK_WriteReg(R11, 0x00000000)
T0E44 000:269.033 - 0.004ms returns 0
T0E44 000:269.038 JLINK_WriteReg(R12, 0x00000000)
T0E44 000:269.043 - 0.004ms returns 0
T0E44 000:269.048 JLINK_WriteReg(R13 (SP), 0x20001000)
T0E44 000:269.053 - 0.005ms returns 0
T0E44 000:269.059 JLINK_WriteReg(R14, 0x20000001)
T0E44 000:269.063 - 0.004ms returns 0
T0E44 000:269.068 JLINK_WriteReg(R15 (PC), 0x20000020)
T0E44 000:269.073 - 0.004ms returns 0
T0E44 000:269.118 JLINK_WriteReg(XPSR, 0x01000000)
T0E44 000:269.126 - 0.008ms returns 0
T0E44 000:269.131 JLINK_WriteReg(MSP, 0x20001000)
T0E44 000:269.136 - 0.004ms returns 0
T0E44 000:269.141 JLINK_WriteReg(PSP, 0x20001000)
T0E44 000:269.145 - 0.004ms returns 0
T0E44 000:269.151 JLINK_WriteReg(CFBP, 0x00000000)
T0E44 000:269.155 - 0.004ms returns 0
T0E44 000:269.161 JLINK_SetBPEx(Addr = 0x20000000, Type = 0xFFFFFFF2)
T0E44 000:269.166 - 0.005ms returns 0x00000002
T0E44 000:269.172 JLINK_Go()
T0E44 000:269.183   CPU_ReadMem(4 bytes @ 0xE0001000)
T0E44 000:272.794 - 3.621ms 
T0E44 000:272.861 JLINK_IsHalted()
T0E44 000:276.139   CPU_ReadMem(2 bytes @ 0x20000000)
T0E44 000:276.778 - 3.916ms returns TRUE
T0E44 000:276.839 JLINK_ReadReg(R15 (PC))
T0E44 000:276.853 - 0.013ms returns 0x20000000
T0E44 000:276.868 JLINK_ClrBPEx(BPHandle = 0x00000002)
T0E44 000:276.877 - 0.009ms returns 0x00
T0E44 000:276.891 JLINK_ReadReg(R0)
T0E44 000:276.899 - 0.008ms returns 0x00000001
T0E44 000:276.913 JLINK_HasError()
T0E44 000:276.926 JLINK_WriteReg(R0, 0x08000000)
T0E44 000:276.935 - 0.009ms returns 0
T0E44 000:276.948 JLINK_WriteReg(R1, 0x00004000)
T0E44 000:276.956 - 0.008ms returns 0
T0E44 000:276.969 JLINK_WriteReg(R2, 0x000000FF)
T0E44 000:276.978 - 0.008ms returns 0
T0E44 000:276.990 JLINK_WriteReg(R3, 0x00000000)
T0E44 000:276.999 - 0.008ms returns 0
T0E44 000:277.012 JLINK_WriteReg(R4, 0x00000000)
T0E44 000:277.020 - 0.008ms returns 0
T0E44 000:277.033 JLINK_WriteReg(R5, 0x00000000)
T0E44 000:277.042 - 0.008ms returns 0
T0E44 000:277.054 JLINK_WriteReg(R6, 0x00000000)
T0E44 000:277.063 - 0.008ms returns 0
T0E44 000:277.076 JLINK_WriteReg(R7, 0x00000000)
T0E44 000:277.084 - 0.008ms returns 0
T0E44 000:277.097 JLINK_WriteReg(R8, 0x00000000)
T0E44 000:277.106 - 0.008ms returns 0
T0E44 000:277.119 JLINK_WriteReg(R9, 0x20000180)
T0E44 000:277.127 - 0.008ms returns 0
T0E44 000:277.140 JLINK_WriteReg(R10, 0x00000000)
T0E44 000:277.149 - 0.008ms returns 0
T0E44 000:277.162 JLINK_WriteReg(R11, 0x00000000)
T0E44 000:277.170 - 0.008ms returns 0
T0E44 000:277.183 JLINK_WriteReg(R12, 0x00000000)
T0E44 000:277.191 - 0.008ms returns 0
T0E44 000:277.204 JLINK_WriteReg(R13 (SP), 0x20001000)
T0E44 000:277.213 - 0.008ms returns 0
T0E44 000:277.226 JLINK_WriteReg(R14, 0x20000001)
T0E44 000:277.234 - 0.008ms returns 0
T0E44 000:277.247 JLINK_WriteReg(R15 (PC), 0x200000C0)
T0E44 000:277.256 - 0.008ms returns 0
T0E44 000:277.268 JLINK_WriteReg(XPSR, 0x01000000)
T0E44 000:277.277 - 0.008ms returns 0
T0E44 000:277.290 JLINK_WriteReg(MSP, 0x20001000)
T0E44 000:277.298 - 0.008ms returns 0
T0E44 000:277.311 JLINK_WriteReg(PSP, 0x20001000)
T0E44 000:277.320 - 0.008ms returns 0
T0E44 000:277.333 JLINK_WriteReg(CFBP, 0x00000000)
T0E44 000:277.341 - 0.008ms returns 0
T0E44 000:277.355 JLINK_SetBPEx(Addr = 0x20000000, Type = 0xFFFFFFF2)
T0E44 000:277.364 - 0.009ms returns 0x00000003
T0E44 000:277.376 JLINK_Go()
T0E44 000:277.392   CPU_ReadMem(4 bytes @ 0xE0001000)
T0E44 000:281.138 - 3.760ms 
T0E44 000:281.206 JLINK_IsHalted()
T0E44 000:281.772 - 0.564ms returns FALSE
T0E44 000:281.831 JLINK_HasError()
T0E44 000:286.471 JLINK_IsHalted()
T0E44 000:306.155 - 19.683ms returns FALSE
T0E44 000:306.228 JLINK_HasError()
T0E44 000:308.537 JLINK_IsHalted()
T0E44 000:309.250 - 0.712ms returns FALSE
T0E44 000:309.293 JLINK_HasError()
T0E44 000:312.022 JLINK_IsHalted()
T0E44 000:312.930 - 0.906ms returns FALSE
T0E44 000:313.022 JLINK_HasError()
T0E44 000:320.773 JLINK_IsHalted()
T0E44 000:321.517 - 0.742ms returns FALSE
T0E44 000:321.608 JLINK_HasError()
T0E44 000:323.020 JLINK_IsHalted()
T0E44 000:323.676 - 0.655ms returns FALSE
T0E44 000:323.760 JLINK_HasError()
T0E44 000:325.027 JLINK_IsHalted()
T0E44 000:325.664 - 0.636ms returns FALSE
T0E44 000:325.753 JLINK_HasError()
T0E44 000:328.415 JLINK_IsHalted()
T0E44 000:329.138 - 0.722ms returns FALSE
T0E44 000:329.212 JLINK_HasError()
T0E44 000:331.102 JLINK_IsHalted()
T0E44 000:331.804 - 0.701ms returns FALSE
T0E44 000:331.860 JLINK_HasError()
T0E44 000:333.429 JLINK_IsHalted()
T0E44 000:334.167 - 0.737ms returns FALSE
T0E44 000:334.245 JLINK_HasError()
T0E44 000:336.163 JLINK_IsHalted()
T0E44 000:336.753 - 0.590ms returns FALSE
T0E44 000:336.801 JLINK_HasError()
T0E44 000:338.166 JLINK_IsHalted()
T0E44 000:338.804 - 0.637ms returns FALSE
T0E44 000:338.872 JLINK_HasError()
T0E44 000:340.165 JLINK_IsHalted()
T0E44 000:340.806 - 0.640ms returns FALSE
T0E44 000:340.897 JLINK_HasError()
T0E44 000:342.418 JLINK_IsHalted()
T0E44 000:343.166 - 0.748ms returns FALSE
T0E44 000:343.210 JLINK_HasError()
T0E44 000:344.425 JLINK_IsHalted()
T0E44 000:366.753 - 22.326ms returns FALSE
T0E44 000:366.878 JLINK_HasError()
T0E44 000:368.551 JLINK_IsHalted()
T0E44 000:369.289 - 0.737ms returns FALSE
T0E44 000:369.373 JLINK_HasError()
T0E44 000:370.549 JLINK_IsHalted()
T0E44 000:371.273 - 0.723ms returns FALSE
T0E44 000:371.332 JLINK_HasError()
T0E44 000:373.050 JLINK_IsHalted()
T0E44 000:373.659 - 0.608ms returns FALSE
T0E44 000:373.700 JLINK_HasError()
T0E44 000:375.271 JLINK_IsHalted()
T0E44 000:376.032 - 0.760ms returns FALSE
T0E44 000:376.084 JLINK_HasError()
T0E44 000:377.454 JLINK_IsHalted()
T0E44 000:378.166 - 0.711ms returns FALSE
T0E44 000:378.211 JLINK_HasError()
T0E44 000:379.797 JLINK_IsHalted()
T0E44 000:380.401 - 0.603ms returns FALSE
T0E44 000:380.448 JLINK_HasError()
T0E44 000:381.812 JLINK_IsHalted()
T0E44 000:382.431 - 0.617ms returns FALSE
T0E44 000:382.510 JLINK_HasError()
T0E44 000:383.807 JLINK_IsHalted()
T0E44 000:384.567 - 0.759ms returns FALSE
T0E44 000:384.645 JLINK_HasError()
T0E44 000:385.931 JLINK_IsHalted()
T0E44 000:386.508 - 0.576ms returns FALSE
T0E44 000:386.595 JLINK_HasError()
T0E44 000:388.334 JLINK_IsHalted()
T0E44 000:389.050 - 0.715ms returns FALSE
T0E44 000:389.131 JLINK_HasError()
T0E44 000:390.702 JLINK_IsHalted()
T0E44 000:391.408 - 0.704ms returns FALSE
T0E44 000:391.492 JLINK_HasError()
T0E44 000:392.988 JLINK_IsHalted()
T0E44 000:393.669 - 0.681ms returns FALSE
T0E44 000:393.703 JLINK_HasError()
T0E44 000:395.225 JLINK_IsHalted()
T0E44 000:395.953 - 0.727ms returns FALSE
T0E44 000:396.032 JLINK_HasError()
T0E44 000:397.764 JLINK_IsHalted()
T0E44 000:398.402 - 0.638ms returns FALSE
T0E44 000:398.428 JLINK_HasError()
T0E44 000:399.765 JLINK_IsHalted()
T0E44 000:400.434 - 0.668ms returns FALSE
T0E44 000:400.492 JLINK_HasError()
T0E44 000:401.764 JLINK_IsHalted()
T0E44 000:402.384 - 0.620ms returns FALSE
T0E44 000:402.427 JLINK_HasError()
T0E44 000:403.781 JLINK_IsHalted()
T0E44 000:404.383 - 0.600ms returns FALSE
T0E44 000:404.451 JLINK_HasError()
T0E44 000:406.068 JLINK_IsHalted()
T0E44 000:428.230 - 22.161ms returns FALSE
T0E44 000:428.316 JLINK_HasError()
T0E44 000:430.489 JLINK_IsHalted()
T0E44 000:431.163 - 0.672ms returns FALSE
T0E44 000:431.245 JLINK_HasError()
T0E44 000:432.854 JLINK_IsHalted()
T0E44 000:433.520 - 0.665ms returns FALSE
T0E44 000:433.570 JLINK_HasError()
T0E44 000:434.961 JLINK_IsHalted()
T0E44 000:435.519 - 0.557ms returns FALSE
T0E44 000:435.561 JLINK_HasError()
T0E44 000:436.963 JLINK_IsHalted()
T0E44 000:437.646 - 0.681ms returns FALSE
T0E44 000:437.752 JLINK_HasError()
T0E44 000:438.959 JLINK_IsHalted()
T0E44 000:439.688 - 0.727ms returns FALSE
T0E44 000:439.764 JLINK_HasError()
T0E44 000:441.240 JLINK_IsHalted()
T0E44 000:441.932 - 0.691ms returns FALSE
T0E44 000:441.985 JLINK_HasError()
T0E44 000:443.445 JLINK_IsHalted()
T0E44 000:444.173 - 0.727ms returns FALSE
T0E44 000:444.253 JLINK_HasError()
T0E44 000:445.944 JLINK_IsHalted()
T0E44 000:446.674 - 0.729ms returns FALSE
T0E44 000:446.719 JLINK_HasError()
T0E44 000:447.957 JLINK_IsHalted()
T0E44 000:448.679 - 0.721ms returns FALSE
T0E44 000:448.788 JLINK_HasError()
T0E44 000:450.329 JLINK_IsHalted()
T0E44 000:451.005 - 0.676ms returns FALSE
T0E44 000:451.062 JLINK_HasError()
T0E44 000:452.430 JLINK_IsHalted()
T0E44 000:453.061 - 0.630ms returns FALSE
T0E44 000:453.091 JLINK_HasError()
T0E44 000:454.441 JLINK_IsHalted()
T0E44 000:455.193 - 0.751ms returns FALSE
T0E44 000:455.286 JLINK_HasError()
T0E44 000:456.433 JLINK_IsHalted()
T0E44 000:457.020 - 0.587ms returns FALSE
T0E44 000:457.063 JLINK_HasError()
T0E44 000:459.023 JLINK_IsHalted()
T0E44 000:459.811 - 0.787ms returns FALSE
T0E44 000:459.893 JLINK_HasError()
T0E44 000:461.051 JLINK_IsHalted()
T0E44 000:461.693 - 0.641ms returns FALSE
T0E44 000:461.772 JLINK_HasError()
T0E44 000:463.014 JLINK_IsHalted()
T0E44 000:463.677 - 0.662ms returns FALSE
T0E44 000:463.757 JLINK_HasError()
T0E44 000:465.013 JLINK_IsHalted()
T0E44 000:488.980 - 23.966ms returns FALSE
T0E44 000:489.071 JLINK_HasError()
T0E44 000:490.208 JLINK_IsHalted()
T0E44 000:490.927 - 0.718ms returns FALSE
T0E44 000:490.982 JLINK_HasError()
T0E44 000:492.206 JLINK_IsHalted()
T0E44 000:492.921 - 0.714ms returns FALSE
T0E44 000:492.955 JLINK_HasError()
T0E44 000:494.205 JLINK_IsHalted()
T0E44 000:494.964 - 0.758ms returns FALSE
T0E44 000:495.052 JLINK_HasError()
T0E44 000:496.209 JLINK_IsHalted()
T0E44 000:496.904 - 0.695ms returns FALSE
T0E44 000:496.946 JLINK_HasError()
T0E44 000:498.222 JLINK_IsHalted()
T0E44 000:498.945 - 0.722ms returns FALSE
T0E44 000:498.977 JLINK_HasError()
T0E44 000:500.231 JLINK_IsHalted()
T0E44 000:500.937 - 0.705ms returns FALSE
T0E44 000:501.023 JLINK_HasError()
T0E44 000:502.224 JLINK_IsHalted()
T0E44 000:502.923 - 0.698ms returns FALSE
T0E44 000:502.978 JLINK_HasError()
T0E44 000:504.221 JLINK_IsHalted()
T0E44 000:504.942 - 0.719ms returns FALSE
T0E44 000:505.029 JLINK_HasError()
T0E44 000:506.227 JLINK_IsHalted()
T0E44 000:506.939 - 0.711ms returns FALSE
T0E44 000:507.006 JLINK_HasError()
T0E44 000:508.214 JLINK_IsHalted()
T0E44 000:508.923 - 0.708ms returns FALSE
T0E44 000:508.951 JLINK_HasError()
T0E44 000:510.636 JLINK_IsHalted()
T0E44 000:511.396 - 0.759ms returns FALSE
T0E44 000:511.474 JLINK_HasError()
T0E44 000:512.742 JLINK_IsHalted()
T0E44 000:513.436 - 0.693ms returns FALSE
T0E44 000:513.493 JLINK_HasError()
T0E44 000:514.724 JLINK_IsHalted()
T0E44 000:515.295 - 0.569ms returns FALSE
T0E44 000:515.352 JLINK_HasError()
T0E44 000:516.735 JLINK_IsHalted()
T0E44 000:517.399 - 0.663ms returns FALSE
T0E44 000:517.470 JLINK_HasError()
T0E44 000:518.771 JLINK_IsHalted()
T0E44 000:519.537 - 0.766ms returns FALSE
T0E44 000:519.577 JLINK_HasError()
T0E44 000:520.739 JLINK_IsHalted()
T0E44 000:521.400 - 0.661ms returns FALSE
T0E44 000:521.426 JLINK_HasError()
T0E44 000:523.212 JLINK_IsHalted()
T0E44 000:523.906 - 0.693ms returns FALSE
T0E44 000:523.989 JLINK_HasError()
T0E44 000:525.448 JLINK_IsHalted()
T0E44 000:548.870 - 23.419ms returns FALSE
T0E44 000:549.002 JLINK_HasError()
T0E44 000:550.447 JLINK_IsHalted()
T0E44 000:551.192 - 0.744ms returns FALSE
T0E44 000:551.224 JLINK_HasError()
T0E44 000:552.460 JLINK_IsHalted()
T0E44 000:553.183 - 0.722ms returns FALSE
T0E44 000:553.259 JLINK_HasError()
T0E44 000:554.445 JLINK_IsHalted()
T0E44 000:555.046 - 0.600ms returns FALSE
T0E44 000:555.097 JLINK_HasError()
T0E44 000:556.448 JLINK_IsHalted()
T0E44 000:557.198 - 0.749ms returns FALSE
T0E44 000:557.247 JLINK_HasError()
T0E44 000:558.458 JLINK_IsHalted()
T0E44 000:559.173 - 0.714ms returns FALSE
T0E44 000:559.228 JLINK_HasError()
T0E44 000:560.500 JLINK_IsHalted()
T0E44 000:561.145 - 0.643ms returns FALSE
T0E44 000:561.196 JLINK_HasError()
T0E44 000:562.452 JLINK_IsHalted()
T0E44 000:563.181 - 0.728ms returns FALSE
T0E44 000:563.234 JLINK_HasError()
T0E44 000:564.454 JLINK_IsHalted()
T0E44 000:565.170 - 0.714ms returns FALSE
T0E44 000:565.252 JLINK_HasError()
T0E44 000:566.454 JLINK_IsHalted()
T0E44 000:567.164 - 0.710ms returns FALSE
T0E44 000:567.209 JLINK_HasError()
T0E44 000:568.455 JLINK_IsHalted()
T0E44 000:569.176 - 0.720ms returns FALSE
T0E44 000:569.246 JLINK_HasError()
T0E44 000:570.452 JLINK_IsHalted()
T0E44 000:571.184 - 0.731ms returns FALSE
T0E44 000:571.261 JLINK_HasError()
T0E44 000:572.444 JLINK_IsHalted()
T0E44 000:573.124 - 0.679ms returns FALSE
T0E44 000:573.191 JLINK_HasError()
T0E44 000:574.466 JLINK_IsHalted()
T0E44 000:575.174 - 0.707ms returns FALSE
T0E44 000:575.226 JLINK_HasError()
T0E44 000:576.447 JLINK_IsHalted()
T0E44 000:577.171 - 0.723ms returns FALSE
T0E44 000:577.257 JLINK_HasError()
T0E44 000:578.498 JLINK_IsHalted()
T0E44 000:579.185 - 0.686ms returns FALSE
T0E44 000:579.247 JLINK_HasError()
T0E44 000:580.500 JLINK_IsHalted()
T0E44 000:581.144 - 0.643ms returns FALSE
T0E44 000:581.204 JLINK_HasError()
T0E44 000:582.502 JLINK_IsHalted()
T0E44 000:583.180 - 0.677ms returns FALSE
T0E44 000:583.260 JLINK_HasError()
T0E44 000:584.610 JLINK_IsHalted()
T0E44 000:585.315 - 0.705ms returns FALSE
T0E44 000:585.381 JLINK_HasError()
T0E44 000:587.315 JLINK_IsHalted()
T0E44 000:608.619 - 21.302ms returns FALSE
T0E44 000:608.748 JLINK_HasError()
T0E44 000:610.594 JLINK_IsHalted()
T0E44 000:611.295 - 0.700ms returns FALSE
T0E44 000:611.337 JLINK_HasError()
T0E44 000:612.622 JLINK_IsHalted()
T0E44 000:613.327 - 0.703ms returns FALSE
T0E44 000:613.416 JLINK_HasError()
T0E44 000:614.602 JLINK_IsHalted()
T0E44 000:615.273 - 0.671ms returns FALSE
T0E44 000:615.317 JLINK_HasError()
T0E44 000:616.649 JLINK_IsHalted()
T0E44 000:617.276 - 0.626ms returns FALSE
T0E44 000:617.348 JLINK_HasError()
T0E44 000:618.684 JLINK_IsHalted()
T0E44 000:619.324 - 0.639ms returns FALSE
T0E44 000:619.367 JLINK_HasError()
T0E44 000:620.656 JLINK_IsHalted()
T0E44 000:621.273 - 0.616ms returns FALSE
T0E44 000:621.330 JLINK_HasError()
T0E44 000:622.648 JLINK_IsHalted()
T0E44 000:623.336 - 0.687ms returns FALSE
T0E44 000:623.393 JLINK_HasError()
T0E44 000:624.756 JLINK_IsHalted()
T0E44 000:625.421 - 0.664ms returns FALSE
T0E44 000:625.496 JLINK_HasError()
T0E44 000:626.743 JLINK_IsHalted()
T0E44 000:627.420 - 0.677ms returns FALSE
T0E44 000:627.476 JLINK_HasError()
T0E44 000:629.371 JLINK_IsHalted()
T0E44 000:630.106 - 0.735ms returns FALSE
T0E44 000:630.158 JLINK_HasError()
T0E44 000:631.373 JLINK_IsHalted()
T0E44 000:631.997 - 0.624ms returns FALSE
T0E44 000:632.026 JLINK_HasError()
T0E44 000:633.365 JLINK_IsHalted()
T0E44 000:633.911 - 0.545ms returns FALSE
T0E44 000:633.961 JLINK_HasError()
T0E44 000:635.369 JLINK_IsHalted()
T0E44 000:636.037 - 0.667ms returns FALSE
T0E44 000:636.089 JLINK_HasError()
T0E44 000:637.373 JLINK_IsHalted()
T0E44 000:638.124 - 0.750ms returns FALSE
T0E44 000:638.204 JLINK_HasError()
T0E44 000:639.371 JLINK_IsHalted()
T0E44 000:640.039 - 0.667ms returns FALSE
T0E44 000:640.127 JLINK_HasError()
T0E44 000:641.368 JLINK_IsHalted()
T0E44 000:642.039 - 0.670ms returns FALSE
T0E44 000:642.070 JLINK_HasError()
T0E44 000:643.374 JLINK_IsHalted()
T0E44 000:644.105 - 0.731ms returns FALSE
T0E44 000:644.164 JLINK_HasError()
T0E44 000:645.812 JLINK_IsHalted()
T0E44 000:671.968   CPU_ReadMem(2 bytes @ 0x20000000)
T0E44 000:672.717 - 26.904ms returns TRUE
T0E44 000:672.785 JLINK_ReadReg(R15 (PC))
T0E44 000:672.800 - 0.014ms returns 0x20000000
T0E44 000:672.811 JLINK_ClrBPEx(BPHandle = 0x00000003)
T0E44 000:672.820 - 0.009ms returns 0x00
T0E44 000:672.840 JLINK_ReadReg(R0)
T0E44 000:672.848 - 0.008ms returns 0x00000000
T0E44 000:672.997 JLINK_HasError()
T0E44 000:673.009 JLINK_WriteReg(R0, 0x00000001)
T0E44 000:673.019 - 0.009ms returns 0
T0E44 000:673.029 JLINK_WriteReg(R1, 0x00004000)
T0E44 000:673.037 - 0.008ms returns 0
T0E44 000:673.047 JLINK_WriteReg(R2, 0x000000FF)
T0E44 000:673.055 - 0.008ms returns 0
T0E44 000:673.064 JLINK_WriteReg(R3, 0x00000000)
T0E44 000:673.072 - 0.008ms returns 0
T0E44 000:673.082 JLINK_WriteReg(R4, 0x00000000)
T0E44 000:673.090 - 0.008ms returns 0
T0E44 000:673.100 JLINK_WriteReg(R5, 0x00000000)
T0E44 000:673.108 - 0.008ms returns 0
T0E44 000:673.117 JLINK_WriteReg(R6, 0x00000000)
T0E44 000:673.126 - 0.008ms returns 0
T0E44 000:673.136 JLINK_WriteReg(R7, 0x00000000)
T0E44 000:673.144 - 0.008ms returns 0
T0E44 000:673.154 JLINK_WriteReg(R8, 0x00000000)
T0E44 000:673.162 - 0.008ms returns 0
T0E44 000:673.171 JLINK_WriteReg(R9, 0x20000180)
T0E44 000:673.180 - 0.008ms returns 0
T0E44 000:673.253 JLINK_WriteReg(R10, 0x00000000)
T0E44 000:673.268 - 0.014ms returns 0
T0E44 000:673.278 JLINK_WriteReg(R11, 0x00000000)
T0E44 000:673.286 - 0.008ms returns 0
T0E44 000:673.296 JLINK_WriteReg(R12, 0x00000000)
T0E44 000:673.304 - 0.008ms returns 0
T0E44 000:673.314 JLINK_WriteReg(R13 (SP), 0x20001000)
T0E44 000:673.324 - 0.010ms returns 0
T0E44 000:673.334 JLINK_WriteReg(R14, 0x20000001)
T0E44 000:673.342 - 0.008ms returns 0
T0E44 000:673.352 JLINK_WriteReg(R15 (PC), 0x20000086)
T0E44 000:673.361 - 0.008ms returns 0
T0E44 000:673.371 JLINK_WriteReg(XPSR, 0x01000000)
T0E44 000:673.379 - 0.008ms returns 0
T0E44 000:673.389 JLINK_WriteReg(MSP, 0x20001000)
T0E44 000:673.397 - 0.008ms returns 0
T0E44 000:673.406 JLINK_WriteReg(PSP, 0x20001000)
T0E44 000:673.415 - 0.008ms returns 0
T0E44 000:673.424 JLINK_WriteReg(CFBP, 0x00000000)
T0E44 000:673.433 - 0.008ms returns 0
T0E44 000:673.444 JLINK_SetBPEx(Addr = 0x20000000, Type = 0xFFFFFFF2)
T0E44 000:673.453 - 0.009ms returns 0x00000004
T0E44 000:673.463 JLINK_Go()
T0E44 000:673.480   CPU_ReadMem(4 bytes @ 0xE0001000)
T0E44 000:677.680 - 4.216ms 
T0E44 000:677.761 JLINK_IsHalted()
T0E44 000:681.104   CPU_ReadMem(2 bytes @ 0x20000000)
T0E44 000:681.807 - 4.045ms returns TRUE
T0E44 000:681.864 JLINK_ReadReg(R15 (PC))
T0E44 000:681.872 - 0.008ms returns 0x20000000
T0E44 000:681.878 JLINK_ClrBPEx(BPHandle = 0x00000004)
T0E44 000:681.883 - 0.005ms returns 0x00
T0E44 000:681.889 JLINK_ReadReg(R0)
T0E44 000:681.893 - 0.004ms returns 0x00000000
T0E44 000:733.703 JLINK_WriteMem(0x20000000, 0x184 Bytes, ...)
T0E44 000:733.717   Data:  00 BE 0A E0 0D 78 2D 06 68 40 08 24 40 00 00 D3 ...
T0E44 000:733.738   CPU_WriteMem(388 bytes @ 0x20000000)
T0E44 000:736.426 - 2.721ms returns 0x184
T0E44 000:736.552 JLINK_HasError()
T0E44 000:736.569 JLINK_WriteReg(R0, 0x08000000)
T0E44 000:736.582 - 0.013ms returns 0
T0E44 000:736.593 JLINK_WriteReg(R1, 0x007A1200)
T0E44 000:736.603 - 0.010ms returns 0
T0E44 000:736.614 JLINK_WriteReg(R2, 0x00000002)
T0E44 000:736.623 - 0.009ms returns 0
T0E44 000:736.645 JLINK_WriteReg(R3, 0x00000000)
T0E44 000:736.654 - 0.009ms returns 0
T0E44 000:736.665 JLINK_WriteReg(R4, 0x00000000)
T0E44 000:736.675 - 0.010ms returns 0
T0E44 000:736.685 JLINK_WriteReg(R5, 0x00000000)
T0E44 000:736.694 - 0.009ms returns 0
T0E44 000:736.705 JLINK_WriteReg(R6, 0x00000000)
T0E44 000:736.714 - 0.009ms returns 0
T0E44 000:736.725 JLINK_WriteReg(R7, 0x00000000)
T0E44 000:736.734 - 0.009ms returns 0
T0E44 000:736.745 JLINK_WriteReg(R8, 0x00000000)
T0E44 000:736.754 - 0.009ms returns 0
T0E44 000:736.765 JLINK_WriteReg(R9, 0x20000180)
T0E44 000:736.774 - 0.009ms returns 0
T0E44 000:736.784 JLINK_WriteReg(R10, 0x00000000)
T0E44 000:736.794 - 0.009ms returns 0
T0E44 000:736.804 JLINK_WriteReg(R11, 0x00000000)
T0E44 000:736.813 - 0.009ms returns 0
T0E44 000:736.824 JLINK_WriteReg(R12, 0x00000000)
T0E44 000:736.833 - 0.009ms returns 0
T0E44 000:736.844 JLINK_WriteReg(R13 (SP), 0x20001000)
T0E44 000:736.854 - 0.009ms returns 0
T0E44 000:736.864 JLINK_WriteReg(R14, 0x20000001)
T0E44 000:736.873 - 0.009ms returns 0
T0E44 000:736.884 JLINK_WriteReg(R15 (PC), 0x20000054)
T0E44 000:736.894 - 0.009ms returns 0
T0E44 000:736.905 JLINK_WriteReg(XPSR, 0x01000000)
T0E44 000:736.914 - 0.009ms returns 0
T0E44 000:736.925 JLINK_WriteReg(MSP, 0x20001000)
T0E44 000:736.934 - 0.009ms returns 0
T0E44 000:736.944 JLINK_WriteReg(PSP, 0x20001000)
T0E44 000:736.953 - 0.009ms returns 0
T0E44 000:736.964 JLINK_WriteReg(CFBP, 0x00000000)
T0E44 000:736.973 - 0.009ms returns 0
T0E44 000:736.985 JLINK_SetBPEx(Addr = 0x20000000, Type = 0xFFFFFFF2)
T0E44 000:737.000   CPU_ReadMem(2 bytes @ 0x20000000)
T0E44 000:737.702 - 0.717ms returns 0x00000005
T0E44 000:737.792 JLINK_Go()
T0E44 000:737.809   CPU_WriteMem(2 bytes @ 0x20000000)
T0E44 000:738.413   CPU_ReadMem(4 bytes @ 0xE0001000)
T0E44 000:742.158 - 4.365ms 
T0E44 000:742.208 JLINK_IsHalted()
T0E44 000:745.429   CPU_ReadMem(2 bytes @ 0x20000000)
T0E44 000:746.132 - 3.923ms returns TRUE
T0E44 000:746.241 JLINK_ReadReg(R15 (PC))
T0E44 000:746.261 - 0.019ms returns 0x20000000
T0E44 000:746.272 JLINK_ClrBPEx(BPHandle = 0x00000005)
T0E44 000:746.283 - 0.010ms returns 0x00
T0E44 000:746.293 JLINK_ReadReg(R0)
T0E44 000:746.302 - 0.008ms returns 0x00000000
T0E44 000:746.348 JLINK_WriteMem(0x20000184, 0x27C Bytes, ...)
T0E44 000:746.358   Data:  38 3A 01 20 E9 02 00 08 D7 18 00 08 DD 17 00 08 ...
T0E44 000:746.379   CPU_WriteMem(636 bytes @ 0x20000184)
T0E44 000:750.157 - 3.808ms returns 0x27C
T0E44 000:750.249 JLINK_WriteMem(0x20000400, 0x184 Bytes, ...)
T0E44 000:750.261   Data:  70 47 00 BF 88 ED 00 E0 EF F3 09 80 BF F3 6F 8F ...
T0E44 000:750.284   CPU_WriteMem(388 bytes @ 0x20000400)
T0E44 000:752.980 - 2.731ms returns 0x184
T0E44 000:753.090 JLINK_HasError()
T0E44 000:753.112 JLINK_WriteReg(R0, 0x08000000)
T0E44 000:753.125 - 0.012ms returns 0
T0E44 000:753.140 JLINK_WriteReg(R1, 0x00000400)
T0E44 000:753.150 - 0.010ms returns 0
T0E44 000:753.164 JLINK_WriteReg(R2, 0x20000184)
T0E44 000:753.174 - 0.009ms returns 0
T0E44 000:753.188 JLINK_WriteReg(R3, 0x00000000)
T0E44 000:753.197 - 0.009ms returns 0
T0E44 000:753.211 JLINK_WriteReg(R4, 0x00000000)
T0E44 000:753.221 - 0.010ms returns 0
T0E44 000:753.235 JLINK_WriteReg(R5, 0x00000000)
T0E44 000:753.244 - 0.009ms returns 0
T0E44 000:753.258 JLINK_WriteReg(R6, 0x00000000)
T0E44 000:753.269 - 0.010ms returns 0
T0E44 000:753.283 JLINK_WriteReg(R7, 0x00000000)
T0E44 000:753.292 - 0.009ms returns 0
T0E44 000:753.306 JLINK_WriteReg(R8, 0x00000000)
T0E44 000:753.315 - 0.009ms returns 0
T0E44 000:753.329 JLINK_WriteReg(R9, 0x20000180)
T0E44 000:753.339 - 0.009ms returns 0
T0E44 000:753.353 JLINK_WriteReg(R10, 0x00000000)
T0E44 000:753.362 - 0.009ms returns 0
T0E44 000:753.376 JLINK_WriteReg(R11, 0x00000000)
T0E44 000:753.385 - 0.009ms returns 0
T0E44 000:753.399 JLINK_WriteReg(R12, 0x00000000)
T0E44 000:753.408 - 0.009ms returns 0
T0E44 000:753.423 JLINK_WriteReg(R13 (SP), 0x20001000)
T0E44 000:753.433 - 0.010ms returns 0
T0E44 000:753.447 JLINK_WriteReg(R14, 0x20000001)
T0E44 000:753.456 - 0.009ms returns 0
T0E44 000:753.470 JLINK_WriteReg(R15 (PC), 0x2000010C)
T0E44 000:753.480 - 0.009ms returns 0
T0E44 000:753.494 JLINK_WriteReg(XPSR, 0x01000000)
T0E44 000:753.503 - 0.009ms returns 0
T0E44 000:753.517 JLINK_WriteReg(MSP, 0x20001000)
T0E44 000:753.527 - 0.009ms returns 0
T0E44 000:753.538 JLINK_WriteReg(PSP, 0x20001000)
T0E44 000:753.547 - 0.009ms returns 0
T0E44 000:753.561 JLINK_WriteReg(CFBP, 0x00000000)
T0E44 000:753.571 - 0.009ms returns 0
T0E44 000:753.585 JLINK_SetBPEx(Addr = 0x20000000, Type = 0xFFFFFFF2)
T0E44 000:753.596 - 0.011ms returns 0x00000006
T0E44 000:753.610 JLINK_Go()
T0E44 000:753.629   CPU_ReadMem(4 bytes @ 0xE0001000)
T0E44 000:757.384 - 3.774ms 
T0E44 000:757.451 JLINK_IsHalted()
T0E44 000:758.035 - 0.583ms returns FALSE
T0E44 000:758.095 JLINK_HasError()
T0E44 000:760.167 JLINK_IsHalted()
T0E44 000:760.781 - 0.614ms returns FALSE
T0E44 000:760.834 JLINK_HasError()
T0E44 000:762.167 JLINK_IsHalted()
T0E44 000:765.458   CPU_ReadMem(2 bytes @ 0x20000000)
T0E44 000:766.169 - 4.001ms returns TRUE
T0E44 000:766.223 JLINK_ReadReg(R15 (PC))
T0E44 000:766.236 - 0.013ms returns 0x20000000
T0E44 000:766.247 JLINK_ClrBPEx(BPHandle = 0x00000006)
T0E44 000:766.256 - 0.008ms returns 0x00
T0E44 000:766.266 JLINK_ReadReg(R0)
T0E44 000:766.275 - 0.009ms returns 0x00000000
T0E44 000:766.316 JLINK_WriteMem(0x20000184, 0x27C Bytes, ...)
T0E44 000:766.326   Data:  F0 8B 13 B5 4F F0 00 00 4F F0 00 01 AF F3 00 80 ...
T0E44 000:766.343   CPU_WriteMem(636 bytes @ 0x20000184)
T0E44 000:770.208 - 3.891ms returns 0x27C
T0E44 000:770.308 JLINK_WriteMem(0x20000400, 0x184 Bytes, ...)
T0E44 000:770.320   Data:  02 2A 0A D0 03 2A 09 D1 04 E0 1A B1 01 2A 06 D0 ...
T0E44 000:770.340   CPU_WriteMem(388 bytes @ 0x20000400)
T0E44 000:795.434 - 25.126ms returns 0x184
T0E44 000:795.519 JLINK_HasError()
T0E44 000:795.535 JLINK_WriteReg(R0, 0x08000400)
T0E44 000:795.545 - 0.010ms returns 0
T0E44 000:795.558 JLINK_WriteReg(R1, 0x00000400)
T0E44 000:795.566 - 0.008ms returns 0
T0E44 000:795.572 JLINK_WriteReg(R2, 0x20000184)
T0E44 000:795.576 - 0.004ms returns 0
T0E44 000:795.582 JLINK_WriteReg(R3, 0x00000000)
T0E44 000:795.586 - 0.004ms returns 0
T0E44 000:795.592 JLINK_WriteReg(R4, 0x00000000)
T0E44 000:795.597 - 0.004ms returns 0
T0E44 000:795.602 JLINK_WriteReg(R5, 0x00000000)
T0E44 000:795.606 - 0.004ms returns 0
T0E44 000:795.613 JLINK_WriteReg(R6, 0x00000000)
T0E44 000:795.617 - 0.004ms returns 0
T0E44 000:795.623 JLINK_WriteReg(R7, 0x00000000)
T0E44 000:795.627 - 0.004ms returns 0
T0E44 000:795.634 JLINK_WriteReg(R8, 0x00000000)
T0E44 000:795.638 - 0.004ms returns 0
T0E44 000:795.644 JLINK_WriteReg(R9, 0x20000180)
T0E44 000:795.648 - 0.004ms returns 0
T0E44 000:795.654 JLINK_WriteReg(R10, 0x00000000)
T0E44 000:795.658 - 0.004ms returns 0
T0E44 000:795.664 JLINK_WriteReg(R11, 0x00000000)
T0E44 000:795.668 - 0.004ms returns 0
T0E44 000:795.674 JLINK_WriteReg(R12, 0x00000000)
T0E44 000:795.678 - 0.004ms returns 0
T0E44 000:795.684 JLINK_WriteReg(R13 (SP), 0x20001000)
T0E44 000:795.689 - 0.005ms returns 0
T0E44 000:795.695 JLINK_WriteReg(R14, 0x20000001)
T0E44 000:795.699 - 0.004ms returns 0
T0E44 000:795.705 JLINK_WriteReg(R15 (PC), 0x2000010C)
T0E44 000:795.710 - 0.004ms returns 0
T0E44 000:795.715 JLINK_WriteReg(XPSR, 0x01000000)
T0E44 000:795.720 - 0.004ms returns 0
T0E44 000:795.725 JLINK_WriteReg(MSP, 0x20001000)
T0E44 000:795.730 - 0.004ms returns 0
T0E44 000:795.735 JLINK_WriteReg(PSP, 0x20001000)
T0E44 000:795.740 - 0.004ms returns 0
T0E44 000:795.746 JLINK_WriteReg(CFBP, 0x00000000)
T0E44 000:795.750 - 0.004ms returns 0
T0E44 000:795.756 JLINK_SetBPEx(Addr = 0x20000000, Type = 0xFFFFFFF2)
T0E44 000:795.763 - 0.006ms returns 0x00000007
T0E44 000:795.769 JLINK_Go()
T0E44 000:795.782   CPU_ReadMem(4 bytes @ 0xE0001000)
T0E44 000:799.545 - 3.774ms 
T0E44 000:799.609 JLINK_IsHalted()
T0E44 000:800.304 - 0.694ms returns FALSE
T0E44 000:800.392 JLINK_HasError()
T0E44 000:802.476 JLINK_IsHalted()
T0E44 000:803.156 - 0.679ms returns FALSE
T0E44 000:803.191 JLINK_HasError()
T0E44 000:804.481 JLINK_IsHalted()
T0E44 000:807.830   CPU_ReadMem(2 bytes @ 0x20000000)
T0E44 000:808.400 - 3.918ms returns TRUE
T0E44 000:808.483 JLINK_ReadReg(R15 (PC))
T0E44 000:808.508 - 0.025ms returns 0x20000000
T0E44 000:808.520 JLINK_ClrBPEx(BPHandle = 0x00000007)
T0E44 000:808.530 - 0.010ms returns 0x00
T0E44 000:808.542 JLINK_ReadReg(R0)
T0E44 000:808.551 - 0.009ms returns 0x00000000
T0E44 000:808.696 JLINK_WriteMem(0x20000184, 0x27C Bytes, ...)
T0E44 000:808.718   Data:  94 F8 5C 10 3F 20 88 40 A8 60 84 F8 35 80 84 F8 ...
T0E44 000:808.742   CPU_WriteMem(636 bytes @ 0x20000184)
T0E44 000:812.629 - 3.933ms returns 0x27C
T0E44 000:812.677 JLINK_WriteMem(0x20000400, 0x184 Bytes, ...)
T0E44 000:812.683   Data:  84 0C DC F8 20 40 57 07 FF 0E 09 FA 07 F8 24 EA ...
T0E44 000:812.695   CPU_WriteMem(388 bytes @ 0x20000400)
T0E44 000:815.339 - 2.661ms returns 0x184
T0E44 000:815.424 JLINK_HasError()
T0E44 000:815.440 JLINK_WriteReg(R0, 0x08000800)
T0E44 000:815.453 - 0.013ms returns 0
T0E44 000:815.464 JLINK_WriteReg(R1, 0x00000400)
T0E44 000:815.474 - 0.009ms returns 0
T0E44 000:815.485 JLINK_WriteReg(R2, 0x20000184)
T0E44 000:815.494 - 0.009ms returns 0
T0E44 000:815.505 JLINK_WriteReg(R3, 0x00000000)
T0E44 000:815.514 - 0.008ms returns 0
T0E44 000:815.524 JLINK_WriteReg(R4, 0x00000000)
T0E44 000:815.533 - 0.009ms returns 0
T0E44 000:815.544 JLINK_WriteReg(R5, 0x00000000)
T0E44 000:815.553 - 0.009ms returns 0
T0E44 000:815.564 JLINK_WriteReg(R6, 0x00000000)
T0E44 000:815.572 - 0.009ms returns 0
T0E44 000:815.584 JLINK_WriteReg(R7, 0x00000000)
T0E44 000:815.593 - 0.009ms returns 0
T0E44 000:815.603 JLINK_WriteReg(R8, 0x00000000)
T0E44 000:815.612 - 0.009ms returns 0
T0E44 000:815.623 JLINK_WriteReg(R9, 0x20000180)
T0E44 000:815.632 - 0.009ms returns 0
T0E44 000:815.643 JLINK_WriteReg(R10, 0x00000000)
T0E44 000:815.652 - 0.009ms returns 0
T0E44 000:815.669 JLINK_WriteReg(R11, 0x00000000)
T0E44 000:815.681 - 0.012ms returns 0
T0E44 000:815.692 JLINK_WriteReg(R12, 0x00000000)
T0E44 000:815.701 - 0.009ms returns 0
T0E44 000:815.711 JLINK_WriteReg(R13 (SP), 0x20001000)
T0E44 000:815.721 - 0.010ms returns 0
T0E44 000:815.732 JLINK_WriteReg(R14, 0x20000001)
T0E44 000:815.741 - 0.009ms returns 0
T0E44 000:815.752 JLINK_WriteReg(R15 (PC), 0x2000010C)
T0E44 000:815.761 - 0.009ms returns 0
T0E44 000:815.772 JLINK_WriteReg(XPSR, 0x01000000)
T0E44 000:815.781 - 0.009ms returns 0
T0E44 000:815.791 JLINK_WriteReg(MSP, 0x20001000)
T0E44 000:815.800 - 0.009ms returns 0
T0E44 000:815.811 JLINK_WriteReg(PSP, 0x20001000)
T0E44 000:815.820 - 0.009ms returns 0
T0E44 000:815.831 JLINK_WriteReg(CFBP, 0x00000000)
T0E44 000:815.840 - 0.009ms returns 0
T0E44 000:815.851 JLINK_SetBPEx(Addr = 0x20000000, Type = 0xFFFFFFF2)
T0E44 000:815.862 - 0.010ms returns 0x00000008
T0E44 000:815.873 JLINK_Go()
T0E44 000:815.892   CPU_ReadMem(4 bytes @ 0xE0001000)
T0E44 000:819.678 - 3.804ms 
T0E44 000:819.777 JLINK_IsHalted()
T0E44 000:820.386 - 0.608ms returns FALSE
T0E44 000:820.466 JLINK_HasError()
T0E44 000:821.538 JLINK_IsHalted()
T0E44 000:822.169 - 0.630ms returns FALSE
T0E44 000:822.209 JLINK_HasError()
T0E44 000:823.751 JLINK_IsHalted()
T0E44 000:827.169   CPU_ReadMem(2 bytes @ 0x20000000)
T0E44 000:827.795 - 4.042ms returns TRUE
T0E44 000:827.896 JLINK_ReadReg(R15 (PC))
T0E44 000:827.915 - 0.018ms returns 0x20000000
T0E44 000:827.945 JLINK_ClrBPEx(BPHandle = 0x00000008)
T0E44 000:827.960 - 0.015ms returns 0x00
T0E44 000:827.972 JLINK_ReadReg(R0)
T0E44 000:827.982 - 0.009ms returns 0x00000000
T0E44 000:828.185 JLINK_WriteMem(0x20000184, 0x27C Bytes, ...)
T0E44 000:828.200   Data:  04 00 00 20 0B 48 10 B5 01 68 41 F4 00 71 01 60 ...
T0E44 000:828.223   CPU_WriteMem(636 bytes @ 0x20000184)
T0E44 000:854.244 - 26.058ms returns 0x27C
T0E44 000:854.357 JLINK_WriteMem(0x20000400, 0x184 Bytes, ...)
T0E44 000:854.370   Data:  C1 00 20 60 00 F0 58 F8 21 68 08 4A C1 F3 03 11 ...
T0E44 000:854.398   CPU_WriteMem(388 bytes @ 0x20000400)
T0E44 000:857.105 - 2.747ms returns 0x184
T0E44 000:857.160 JLINK_HasError()
T0E44 000:857.174 JLINK_WriteReg(R0, 0x08000C00)
T0E44 000:857.182 - 0.007ms returns 0
T0E44 000:857.188 JLINK_WriteReg(R1, 0x00000400)
T0E44 000:857.192 - 0.005ms returns 0
T0E44 000:857.198 JLINK_WriteReg(R2, 0x20000184)
T0E44 000:857.203 - 0.004ms returns 0
T0E44 000:857.208 JLINK_WriteReg(R3, 0x00000000)
T0E44 000:857.212 - 0.004ms returns 0
T0E44 000:857.218 JLINK_WriteReg(R4, 0x00000000)
T0E44 000:857.222 - 0.004ms returns 0
T0E44 000:857.228 JLINK_WriteReg(R5, 0x00000000)
T0E44 000:857.232 - 0.004ms returns 0
T0E44 000:857.237 JLINK_WriteReg(R6, 0x00000000)
T0E44 000:857.242 - 0.004ms returns 0
T0E44 000:857.247 JLINK_WriteReg(R7, 0x00000000)
T0E44 000:857.252 - 0.004ms returns 0
T0E44 000:857.257 JLINK_WriteReg(R8, 0x00000000)
T0E44 000:857.262 - 0.004ms returns 0
T0E44 000:857.267 JLINK_WriteReg(R9, 0x20000180)
T0E44 000:857.272 - 0.004ms returns 0
T0E44 000:857.277 JLINK_WriteReg(R10, 0x00000000)
T0E44 000:857.282 - 0.005ms returns 0
T0E44 000:857.287 JLINK_WriteReg(R11, 0x00000000)
T0E44 000:857.292 - 0.004ms returns 0
T0E44 000:857.297 JLINK_WriteReg(R12, 0x00000000)
T0E44 000:857.301 - 0.004ms returns 0
T0E44 000:857.307 JLINK_WriteReg(R13 (SP), 0x20001000)
T0E44 000:857.313 - 0.006ms returns 0
T0E44 000:857.318 JLINK_WriteReg(R14, 0x20000001)
T0E44 000:857.323 - 0.004ms returns 0
T0E44 000:857.328 JLINK_WriteReg(R15 (PC), 0x2000010C)
T0E44 000:857.333 - 0.004ms returns 0
T0E44 000:857.338 JLINK_WriteReg(XPSR, 0x01000000)
T0E44 000:857.343 - 0.004ms returns 0
T0E44 000:857.348 JLINK_WriteReg(MSP, 0x20001000)
T0E44 000:857.353 - 0.004ms returns 0
T0E44 000:857.358 JLINK_WriteReg(PSP, 0x20001000)
T0E44 000:857.362 - 0.004ms returns 0
T0E44 000:857.368 JLINK_WriteReg(CFBP, 0x00000000)
T0E44 000:857.372 - 0.004ms returns 0
T0E44 000:857.384 JLINK_SetBPEx(Addr = 0x20000000, Type = 0xFFFFFFF2)
T0E44 000:857.396 - 0.012ms returns 0x00000009
T0E44 000:857.404 JLINK_Go()
T0E44 000:857.415   CPU_ReadMem(4 bytes @ 0xE0001000)
T0E44 000:861.263 - 3.858ms 
T0E44 000:861.345 JLINK_IsHalted()
T0E44 000:862.063 - 0.717ms returns FALSE
T0E44 000:862.112 JLINK_HasError()
T0E44 000:863.760 JLINK_IsHalted()
T0E44 000:864.419 - 0.658ms returns FALSE
T0E44 000:864.460 JLINK_HasError()
T0E44 000:865.773 JLINK_IsHalted()
T0E44 000:869.085   CPU_ReadMem(2 bytes @ 0x20000000)
T0E44 000:869.791 - 4.016ms returns TRUE
T0E44 000:869.867 JLINK_ReadReg(R15 (PC))
T0E44 000:869.882 - 0.015ms returns 0x20000000
T0E44 000:869.894 JLINK_ClrBPEx(BPHandle = 0x00000009)
T0E44 000:869.904 - 0.009ms returns 0x00
T0E44 000:869.915 JLINK_ReadReg(R0)
T0E44 000:869.924 - 0.009ms returns 0x00000000
T0E44 000:870.141 JLINK_WriteMem(0x20000184, 0x27C Bytes, ...)
T0E44 000:870.163   Data:  0D E0 28 68 40 F4 80 30 F4 E7 40 F4 80 20 28 60 ...
T0E44 000:870.187   CPU_WriteMem(636 bytes @ 0x20000184)
T0E44 000:874.104 - 3.964ms returns 0x27C
T0E44 000:874.155 JLINK_WriteMem(0x20000400, 0x184 Bytes, ...)
T0E44 000:874.161   Data:  34 E0 00 BF FF F7 B2 FC 00 1B 02 28 02 D9 03 20 ...
T0E44 000:874.174   CPU_WriteMem(388 bytes @ 0x20000400)
T0E44 000:876.801 - 2.645ms returns 0x184
T0E44 000:876.890 JLINK_HasError()
T0E44 000:876.905 JLINK_WriteReg(R0, 0x08001000)
T0E44 000:876.918 - 0.012ms returns 0
T0E44 000:876.928 JLINK_WriteReg(R1, 0x00000400)
T0E44 000:876.938 - 0.009ms returns 0
T0E44 000:876.948 JLINK_WriteReg(R2, 0x20000184)
T0E44 000:876.957 - 0.008ms returns 0
T0E44 000:876.968 JLINK_WriteReg(R3, 0x00000000)
T0E44 000:876.976 - 0.008ms returns 0
T0E44 000:876.987 JLINK_WriteReg(R4, 0x00000000)
T0E44 000:876.996 - 0.008ms returns 0
T0E44 000:877.006 JLINK_WriteReg(R5, 0x00000000)
T0E44 000:877.015 - 0.008ms returns 0
T0E44 000:877.025 JLINK_WriteReg(R6, 0x00000000)
T0E44 000:877.034 - 0.008ms returns 0
